! peters_01_0605 B1 channel fext1 coupling
#        HZ        S              RI          R       50
5.00000000e+007  4.039888371711e-002 -4.982691984403e-003 -4.231789048168e-003 -3.573861000627e-003  2.964703777054e-002  2.809131743853e-002 -2.964405846842e-003 -2.431430438077e-003 
                -4.086873425976e-003 -3.671716437860e-003  4.004416405177e-002 -1.260563919299e-003 -3.079087661128e-003 -2.383790086206e-003  3.024362896072e-002  2.877443191943e-002 
                 2.953872914313e-002  2.801079692920e-002 -3.010368407667e-003 -2.463692766990e-003  3.746114245974e-002 -9.487968255149e-003 -2.731791643809e-003 -2.324625435380e-003 
                -2.956166042972e-003 -2.433582405915e-003  3.030241685540e-002  2.882435110669e-002 -2.716344022354e-003 -2.313460428065e-003  3.823827299920e-002 -1.829208035832e-003 
6.00000000e+007  4.242505404434e-002 -9.983979433833e-003 -5.740330689950e-003 -3.412372718507e-003  3.902833497404e-002  2.743449480407e-002 -3.935486920507e-003 -2.255490788835e-003 
                -5.626636646635e-003 -3.411357507906e-003  4.141111998178e-002 -3.765881816373e-003 -3.983133655894e-003 -2.284974896861e-003  4.007778802232e-002  2.816560193282e-002 
                 3.912910656166e-002  2.744585660325e-002 -4.023962905311e-003 -2.413003633789e-003  3.851373410724e-002 -1.551404931398e-002 -3.690251572163e-003 -2.154198768487e-003 
                -3.897365390484e-003 -2.265525769675e-003  4.028604616126e-002  2.803881904955e-002 -3.627927257696e-003 -1.965202232052e-003  3.972098388001e-002 -4.707806347340e-003 
7.00000000e+007  4.337666270319e-002 -1.563665609181e-002 -7.010134850465e-003 -2.917474657696e-003  4.862367525989e-002  2.434330160887e-002 -4.900387739299e-003 -1.769265385557e-003 
                -7.033342296201e-003 -2.970744207176e-003  4.189384045013e-002 -6.861372773662e-003 -5.010770107777e-003 -1.811012679969e-003  4.983558234700e-002  2.483971056868e-002 
                 4.858910430252e-002  2.428723912014e-002 -5.080588081472e-003 -1.890731537370e-003  3.862423249205e-002 -2.175790029851e-002 -4.577030866028e-003 -1.724143106423e-003 
                -4.763218824974e-003 -1.819765761140e-003  4.984468123789e-002  2.484835562553e-002 -4.555893600676e-003 -1.588854461340e-003  3.986649569384e-002 -7.592259880519e-003 
8.00000000e+007  4.273403207965e-002 -2.189161317070e-002 -8.450343618204e-003 -2.085979082896e-003  5.748628317030e-002  1.882786042714e-002 -5.767567932522e-003 -1.159676309899e-003 
                -8.480953445616e-003 -2.136807116540e-003  4.165631762621e-002 -1.013281021359e-002 -5.945496805817e-003 -1.151609192400e-003  5.880302086931e-002  1.921550170158e-002 
                 5.735691539900e-002  1.875053577665e-002 -5.927748094146e-003 -1.159052428647e-003  3.716782523996e-002 -2.776943612917e-002 -5.420883924523e-003 -1.062352802438e-003 
                -5.842839949491e-003 -1.220730242367e-003  5.873360961833e-002  1.906048536111e-002 -5.372011239626e-003 -1.193525970112e-003  3.956101962599e-002 -1.092196901443e-002 
9.00000000e+007  4.131686711546e-002 -2.870737209783e-002 -9.577276633374e-003 -9.369638668772e-004  6.524971084616e-002  1.108735583865e-002 -6.494845506311e-003 -2.024496212566e-004 
                -9.569970099930e-003 -9.085379939493e-004  4.141666221175e-002 -1.371994866016e-002 -6.701165153471e-003 -3.027368261436e-004  6.673511671470e-002  1.117323109382e-002 
                 6.509330486751e-002  1.094466584346e-002 -6.715518928572e-003 -2.162556819886e-004  3.523885950591e-002 -3.383401668030e-002 -6.124551059986e-003 -3.218125442265e-004 
                -6.533874406104e-003 -2.588556456104e-004  6.662783231746e-002  1.119020472003e-002 -6.156667344455e-003 -3.737261159177e-004  3.876912740593e-002 -1.419757476411e-002 
1.00000000e+008  3.966856425228e-002 -3.588442686128e-002 -1.048851223512e-002  6.558903061284e-004  7.130686702441e-002  1.469149128726e-003 -7.061739803633e-003  7.644867204799e-004 
                -1.056028518022e-002  6.455826146426e-004  4.171002236230e-002 -1.816780282633e-002 -7.273953278845e-003  8.461280619274e-004  7.275508878034e-002  1.370722643212e-003 
                 7.117868677021e-002  1.427514857665e-003 -7.341317261388e-003  7.834218963257e-004  3.268939610629e-002 -3.955543713835e-002 -6.788052224630e-003  6.593534679512e-004 
                -7.100901073046e-003  8.015734219771e-004  7.273149257488e-002  1.293845751941e-003 -6.808305055295e-003  7.455087350554e-004  3.801625217773e-002 -1.820403994610e-002 
1.10000000e+008  3.728449966875e-002 -4.299816075661e-002 -1.123684527679e-002  2.398626320525e-003  7.537719284235e-002 -9.535999329275e-003 -7.524485942462e-003  2.058570450989e-003 
                -1.124619847181e-002  2.468849110951e-003  4.173755162707e-002 -2.261576054830e-002 -7.703221369812e-003  2.121433601996e-003  7.675307600303e-002 -9.994004456364e-003 
                 7.530771827014e-002 -9.638342852675e-003 -7.718286356773e-003  2.153189428464e-003  2.932014867675e-002 -4.469278672866e-002 -7.091944677553e-003  1.892067834546e-003 
                -7.523972667219e-003  2.056656340505e-003  7.682503785271e-002 -1.007615243683e-002 -7.153393118978e-003  1.843023571570e-003  3.718012235860e-002 -2.184563183795e-002 
1.20000000e+008  3.473820780756e-002 -4.944980831428e-002 -1.161199341272e-002  4.482122040177e-003  7.707548309942e-002 -2.153347705297e-002 -7.634455859631e-003  3.462625120821e-003 
                -1.162884314957e-002  4.488455413920e-003  4.247321023183e-002 -2.689424467433e-002 -7.802727813643e-003  3.580455790287e-003  7.846000945471e-002 -2.229437759540e-002 
                 7.702366997005e-002 -2.155538339590e-002 -7.872516875121e-003  3.513562159822e-003  2.583070597679e-002 -4.951538884772e-002 -7.277002867046e-003  3.211128348883e-003 
                -7.619356007398e-003  3.425599222402e-003  7.840690389176e-002 -2.238226849783e-002 -7.238525095292e-003  3.166947338499e-003  3.693864374221e-002 -2.538618993638e-002 
1.30000000e+008  3.208353524920e-002 -5.552172899787e-002 -1.159701929501e-002  6.683365055961e-003  7.646565114591e-002 -3.402238151323e-002 -7.513462322807e-003  4.954582113938e-003 
                -1.158383487225e-002  6.664177792674e-003  4.351653589181e-002 -3.139425719740e-002 -7.746540203889e-003  5.093383538429e-003  7.755684134902e-002 -3.510789154825e-002 
                 7.639384348783e-002 -3.402386017424e-002 -7.750028050325e-003  5.084429783091e-003  2.203004925004e-002 -5.372356238226e-002 -7.215338788837e-003  4.583360138839e-003 
                -7.430782146303e-003  4.881942000289e-003  7.753684649159e-002 -3.524395944186e-002 -7.141231206832e-003  4.541495992574e-003  3.705665325814e-002 -2.909362848298e-002 
1.40000000e+008  2.879356317093e-002 -6.079845971669e-002 -1.118760717530e-002  8.985056855195e-003  7.335358478833e-002 -4.651225696203e-002 -7.101634570102e-003  6.461113482422e-003 
                -1.116266052414e-002  8.896183789846e-003  4.427918910753e-002 -3.580623461047e-002 -7.318108995931e-003  6.615399135629e-003  7.405168938081e-002 -4.783861306359e-002 
                 7.321213900426e-002 -4.651677441978e-002 -7.285243968928e-003  6.638219363142e-003  1.807308618502e-002 -5.779613042193e-002 -6.792445616952e-003  6.024194845849e-003 
                -7.055000622194e-003  6.461768737802e-003  7.397179245743e-002 -4.792345189607e-002 -6.836766995223e-003  5.937309327720e-003  3.722764101331e-002 -3.275929891778e-002 
1.50000000e+008  2.474079893356e-002 -6.559530550374e-002 -1.032004531956e-002  1.121537986884e-002  6.780671234669e-002 -5.849930492522e-002 -6.399182671020e-003  7.944234522149e-003 
                -1.029231098388e-002  1.118382473088e-002  4.425518483120e-002 -4.050776025104e-002 -6.517239363577e-003  8.157209821860e-003  6.809908891576e-002 -5.997186551079e-002 
                 6.766128941124e-002 -5.841220492507e-002 -6.576006934707e-003  8.224173684614e-003  1.366617920203e-002 -6.142612416568e-002 -6.177798742522e-003  7.458822138709e-003 
                -6.339232148855e-003  7.924395230105e-003  6.801290267702e-002 -6.003937335987e-002 -6.173612699117e-003  7.375122388225e-003  3.705250839168e-002 -3.654993485472e-002 
1.60000000e+008  1.954093264692e-002 -6.997578409913e-002 -8.989322089921e-003  1.344703362693e-002  5.999188006744e-002 -6.942853429948e-002 -5.383381037236e-003  9.297996806190e-003 
                -9.009228127497e-003  1.344694777809e-002  4.293953461283e-002 -4.558191802934e-002 -5.505959093195e-003  9.597845563670e-003  5.972341387142e-002 -7.103437098014e-002 
                 5.985342582964e-002 -6.931423963700e-002 -5.464273994086e-003  9.621638878983e-003  9.057021174173e-003 -6.486978779409e-002 -5.296409703988e-003  8.815253839085e-003 
                -5.345785328185e-003  9.319662827858e-003  5.964475103806e-002 -7.105082661453e-002 -5.256454836713e-003  8.786740211796e-003  3.612027378537e-002 -4.067649226113e-002 
1.70000000e+008  1.311788308067e-002 -7.414349714224e-002 -7.155470150540e-003  1.552100280023e-002  5.018245178418e-002 -7.890400264200e-002 -3.962872508187e-003  1.060901816776e-002 
                -7.149326053076e-003  1.556455977491e-002  3.990991300299e-002 -5.132902887347e-002 -4.102483230040e-003  1.091124559101e-002  4.922683813787e-002 -8.059548378754e-002 
                 4.998516934808e-002 -7.887881549722e-002 -4.084266509570e-003  1.093515871301e-002  3.919872288211e-003 -6.817940939348e-002 -4.046645805998e-003  1.003694882526e-002 
                -3.969859244191e-003  1.060213462381e-002  4.915961711868e-002 -8.063298961185e-002 -4.015918107285e-003  9.981406852522e-003  3.411230236134e-002 -4.517038458557e-002 
1.80000000e+008  5.316452086067e-003 -7.833680250187e-002 -4.775506544447e-003  1.748145935681e-002  3.852277965516e-002 -8.672840162623e-002 -2.220958474257e-003  1.174485216832e-002 
                -4.763956582467e-003  1.748150104197e-002  3.492777469433e-002 -5.780745760628e-002 -2.403918069999e-003  1.204750608685e-002  3.685568251854e-002 -8.822850647661e-002 
                 3.846237411060e-002 -8.663049118397e-002 -2.366237986626e-003  1.213444217056e-002 -1.916974317279e-003 -7.127422542173e-002 -2.431596140794e-003  1.103118108854e-002 
                -2.226508510546e-003  1.176822794020e-002  3.674962679691e-002 -8.823048800889e-002 -2.380773208372e-003  1.111795030256e-002  3.062065378156e-002 -5.011692252114e-002 
1.90000000e+008 -3.845472117351e-003 -8.203291701015e-002 -1.426192101911e-003  1.863550579106e-002  2.540525841406e-002 -9.228285594256e-002  8.465571354141e-005  1.218870601869e-002 
                -1.418075266922e-003  1.861907601191e-002  2.740735376256e-002 -6.408422240094e-002 -8.335784447019e-006  1.270699726586e-002  2.256130388841e-002 -9.298198732472e-002 
                 2.522543678297e-002 -9.219221713414e-002 -2.604410809830e-005  1.271897333531e-002 -8.446895460217e-003 -7.387062921814e-002 -4.025694359576e-004  1.165304843589e-002 
                 1.274946999949e-004  1.215833155089e-002  2.242182148844e-002 -9.296737390150e-002 -3.990406803302e-004  1.167518267675e-002  2.527529813730e-002 -5.482092659807e-002 
2.00000000e+008 -1.294372889839e-002 -8.462887008111e-002  1.079717804711e-003  1.840936420581e-002  1.162432668318e-002 -9.503773747919e-002  1.504172800500e-003  1.184890713046e-002 
                 1.068663084055e-003  1.844005965860e-002  2.081945341594e-002 -6.956121375782e-002  1.845004115505e-003  1.231758843337e-002  9.131050810685e-003 -9.458025328309e-002 
                 1.141763077818e-002 -9.490163909761e-002  1.859225914948e-003  1.238017124264e-002 -1.553799974476e-002 -7.575798828461e-002  1.191695037212e-003  1.142602323375e-002 
                 1.531123218199e-003  1.178192780027e-002  9.042160403530e-003 -9.455765149493e-002  1.216174501955e-003  1.143551133884e-002  1.992836796358e-002 -5.945082803720e-002 
2.10000000e+008 -2.178166086705e-002 -8.716984426895e-002  3.277983286740e-003  1.903988512496e-002 -1.747630650007e-003 -9.559002575118e-002  2.924910649463e-003  1.231543185165e-002 
                 3.309536172102e-003  1.901006539509e-002  1.269520114433e-002 -7.608615453488e-002  3.233062931419e-003  1.241286562730e-002 -4.525043262919e-003 -9.500029288096e-002 
                -1.874490065714e-003 -9.547059970480e-002  3.249876526378e-003  1.245085244324e-002 -2.276690297901e-002 -7.687039332372e-002  2.549119591250e-003  1.180593381777e-002 
                 2.988862977997e-003  1.226919239798e-002 -4.610459461291e-003 -9.497015524656e-002  2.553444471869e-003  1.178658225819e-002  1.349320556498e-002 -6.433524406250e-002 
2.20000000e+008 -3.127629996050e-002 -8.922721311787e-002  6.307777386257e-003  1.927513697605e-002 -1.525478235873e-002 -9.468400414108e-002  5.004517920048e-003  1.221561301728e-002 
                 6.325222647339e-003  1.926731427733e-002  3.525323238920e-003 -8.133863977877e-002  5.186698543736e-003  1.237501039258e-002 -1.836342691494e-002 -9.329287990484e-002 
                -1.533558854128e-002 -9.455748819154e-002  5.222645076997e-003  1.242607819868e-002 -3.027078447491e-002 -7.781878056275e-002  4.516545841861e-003  1.184513160156e-002 
                 4.987536716161e-003  1.219338974629e-002 -1.839138501692e-002 -9.330571878593e-002  4.461558000477e-003  1.181465789638e-002  5.788962554718e-003 -6.884303384178e-002 
2.30000000e+008 -4.106884988563e-002 -8.935051839845e-002  9.483181346588e-003  1.887123926900e-002 -2.873267966894e-002 -9.150288292203e-002  7.046592642857e-003  1.177216769018e-002 
                 9.513548427270e-003  1.883018335869e-002 -6.529763539311e-003 -8.448503629117e-002  7.245223848629e-003  1.194084671970e-002 -3.204014665447e-002 -8.919170917950e-002 
                -2.887389761635e-002 -9.135564643984e-002  7.242617199534e-003  1.198567945930e-002 -3.860859700810e-002 -7.751621145326e-002  6.462781600416e-003  1.144884548701e-002 
                 7.062349417714e-003  1.171954392040e-002 -3.216417409879e-002 -8.920339976449e-002  6.404082253822e-003  1.144971141498e-002 -2.822981853674e-003 -7.185556829122e-002 
2.40000000e+008 -5.105948405648e-002 -8.727177899462e-002  1.258133639121e-002  1.788017739317e-002 -4.155403096054e-002 -8.616653689183e-002  9.022590802508e-003  1.097802146156e-002 
                 1.258523496042e-002  1.786887229209e-002 -1.708817428517e-002 -8.487079459743e-002  9.246066108090e-003  1.108119513071e-002 -4.482447730077e-002 -8.285171232215e-002 
                -4.164902005589e-002 -8.598512551241e-002  9.280377383076e-003  1.112289493017e-002 -4.719555428423e-002 -7.598488834501e-002  8.357397151927e-003  1.075698827948e-002 
                 8.997652400728e-003  1.091176888848e-002 -4.485824113778e-002 -8.276860909200e-002  8.343619433702e-003  1.074616395490e-002 -1.204857072786e-002 -7.278550761941e-002 
2.50000000e+008 -6.094525500503e-002 -8.289521359145e-002  1.560551578587e-002  1.630283720881e-002 -5.336361569516e-002 -7.896313656346e-002  1.088323055600e-002  9.813002021040e-003 
                 1.561597978099e-002  1.630250902407e-002 -2.799238531474e-002 -8.220469551304e-002  1.112201271936e-002  9.874561360913e-003 -5.629530476283e-002 -7.449149147829e-002 
                -5.339054696165e-002 -7.875532429072e-002  1.115592162395e-002  9.920708327545e-003 -5.581675069002e-002 -7.297102838393e-002  1.014044845261e-002  9.655429000309e-003 
                 1.085258183154e-002  9.781286601960e-003 -5.635159205773e-002 -7.450534966403e-002  1.015768781896e-002  9.688072417799e-003 -2.149965901689e-002 -7.150681242481e-002 
2.60000000e+008 -7.094240846333e-002 -7.617022240628e-002  1.833451235473e-002  1.424830013420e-002 -6.387994827631e-002 -7.009841745158e-002  1.256586045082e-002  8.340615992278e-003 
                 1.841888466471e-002  1.421448007168e-002 -3.904279850118e-002 -7.655941147368e-002  1.281064782862e-002  8.337777114498e-003 -6.623501019378e-002 -6.458059684324e-002 
                -6.387294173287e-002 -6.982993491612e-002  1.282063275209e-002  8.329759710581e-003 -6.424650373251e-002 -6.845183269387e-002  1.176845236784e-002  8.307078539765e-003 
                 1.255824112387e-002  8.312290892091e-003 -6.634383954855e-002 -6.452043776941e-002  1.178654787366e-002  8.297028698386e-003 -3.096893218509e-002 -6.778239980493e-002 
2.70000000e+008 -8.059112954165e-002 -6.762204557836e-002  2.083794855836e-002  1.167974502629e-002 -7.292102968193e-002 -5.977879803180e-002  1.400177953994e-002  6.571016566321e-003 
                 2.085106576136e-002  1.166655500203e-002 -4.984439818660e-002 -6.823455847601e-002  1.423917272299e-002  6.469587325698e-003 -7.456003582443e-002 -5.331547597893e-002 
                -7.284669423997e-002 -5.949539615221e-002  1.428414081757e-002  6.505977029140e-003 -7.225919729025e-002 -6.248518422769e-002  1.321211389227e-002  6.664896885745e-003 
                 1.401731881017e-002  6.514109484340e-003 -7.456537553696e-002 -5.317894477170e-002  1.327470069764e-002  6.647257884884e-003 -4.029992016916e-002 -6.177984362524e-002 
2.80000000e+008 -8.963701786527e-002 -5.739372785611e-002  2.298150095104e-002  8.699594417992e-003 -8.036699125887e-002 -4.834211944047e-002  1.519937863236e-002  4.469847669681e-003 
                 2.298851081327e-002  8.698023429972e-003 -5.993593789084e-002 -5.774152729314e-002  1.539420445899e-002  4.441053149304e-003 -8.097950404600e-002 -4.091985197266e-002 
                -8.023684381408e-002 -4.811987629612e-002  1.546082291170e-002  4.415562919165e-003 -7.951897454823e-002 -5.498692324360e-002  1.440949014324e-002  4.697970818542e-003 
                 1.517822518921e-002  4.470884599911e-003 -8.098241380907e-002 -4.084308086636e-002  1.444171748113e-002  4.753778728039e-003 -4.899690072360e-002 -5.386397631518e-002 
2.90000000e+008 -9.723019253858e-002 -4.621334628558e-002  2.447017712022e-002  5.414265943330e-003 -8.596026844221e-002 -3.601230137526e-002  1.601470285160e-002  2.292809755500e-003 
                 2.445679596840e-002  5.386741126140e-003 -6.828788899436e-002 -4.604273902250e-002  1.615374460911e-002  2.200987074825e-003 -8.537163255727e-002 -2.792911259791e-002 
                -8.586703703422e-002 -3.586462166207e-002  1.620464285814e-002  2.114358966700e-003 -8.564854361297e-002 -4.619050851612e-002  1.533156523900e-002  2.615132180653e-003 
                 1.598894994360e-002  2.296277139460e-003 -8.539615333558e-002 -2.788305730163e-002  1.532813191382e-002  2.581532109529e-003 -5.659997699343e-002 -4.443579959158e-002 
3.00000000e+008 -1.030937473454e-001 -3.468154695631e-002  2.565378762782e-002  1.844337373345e-003 -8.992374264209e-002 -2.317480427616e-002  1.657095174018e-002 -3.999280756860e-005 
                 2.563836976882e-002  1.835650183749e-003 -7.467669842284e-002 -3.379561712211e-002  1.666446080619e-002 -1.340561042470e-004 -8.783528895030e-002 -1.462785151750e-002 
                -8.979062658046e-002 -2.305003649214e-002  1.666909446909e-002 -1.737514904487e-004 -9.025587860631e-002 -3.654281743384e-002  1.589659841691e-002  4.144427240300e-004 
                 1.649487246377e-002 -6.486450499889e-005 -8.780094331046e-002 -1.457835254046e-002  1.588102413220e-002  3.975783100516e-004 -6.277693524453e-002 -3.410930116998e-002 
3.10000000e+008 -1.067815317629e-001 -2.296925445821e-002  2.624640429631e-002 -1.926330842501e-003 -9.199803731208e-002 -9.982112738525e-003  1.676083835041e-002 -2.498242140271e-003 
                 2.623079415989e-002 -1.906682391357e-003 -7.847833665826e-002 -2.097500808945e-002  1.680844979240e-002 -2.564765988629e-003 -8.841708336075e-002 -1.183213834734e-003 
                -9.190261251718e-002 -9.803345781740e-003  1.685501936904e-002 -2.571151895389e-003 -9.320375928646e-002 -2.620657129179e-002  1.615231235064e-002 -1.969972011856e-003 
